# HZ S RI R 50
2000000000 0.49192701537929623 -0.5404203504038321
2010000000 0.477022914046296 -0.5446150981635219
2020000000 0.4610250979916066 -0.5523299956151771
2030000000 0.4474301612740754 -0.5514498985235919
2040000000 0.4344169167782623 -0.5518332312565399
2050000000 0.4166633309859044 -0.557149884246278
2060000000 0.40565884790706197 -0.5592197316832156
2070000000 0.391214576318689 -0.5618418086197507
2080000000 0.3760715317352741 -0.5629681483964688
2090000000 0.3658181051065583 -0.5640675506922596
2100000000 0.35048937017551135 -0.5649175977206434
2110000000 0.34025666602595916 -0.5682945865214406
2120000000 0.33018062054586894 -0.566922233921427
2130000000 0.3153333424940492 -0.567155738041093
2140000000 0.29636781974059456 -0.566108062663188
2150000000 0.2787069905510191 -0.5617930489917115
2160000000 0.26641720625390153 -0.558103282554311
2170000000 0.2462011097989412 -0.5526313519299845
2180000000 0.2335650993461312 -0.5467339713476622
2190000000 0.21616893985422211 -0.5432748098750513
2200000000 0.20080942380419284 -0.5319713711122128
2210000000 0.1827588597546471 -0.5239278282398588
2220000000 0.16927930601186528 -0.5086077755169698
2230000000 0.1506599793339008 -0.5036596267141596
2240000000 0.13483818368028835 -0.49117507073398836
2250000000 0.12259643963166966 -0.4794479032857655
2260000000 0.10435679584519315 -0.4669490526157893
2270000000 0.08918802721732831 -0.4525101743384958
2280000000 0.07522814259930763 -0.4349468632918726
2290000000 0.05940689390388417 -0.41735697824952345
2300000000 0.05046540427384283 -0.3964107346798667
2310000000 0.04116519624204672 -0.3764685170973054
2320000000 0.03385029869944411 -0.355582648271491
2330000000 0.029803409587404787 -0.33628401678371705
2340000000 0.021949308762243047 -0.3171767930132285
2350000000 0.018025690968124668 -0.2972807010410611
2360000000 0.011568574060841821 -0.2764720705867466
2370000000 0.008620143929203981 -0.2526680783307949
2380000000 0.007949194208486002 -0.22850518008194193
2390000000 0.00923495066772186 -0.20448490863080593
2400000000 0.012261477542801987 -0.17765089150674196
2410000000 0.018757255268177668 -0.15479693299592215
2420000000 0.025514317882987622 -0.13114311711255447
2430000000 0.0319193156667393 -0.10735582311976959
2440000000 0.04046750535869114 -0.07972044234591295
2450000000 0.05745342737273858 -0.05262569996645488
2460000000 0.07617509235111841 -0.029783512310871535
2470000000 0.09579822145316043 -0.0057739005461838995
2480000000 0.11750671527974363 0.014602997775899644
2490000000 0.14004635050850964 0.03804434444089671
2500000000 0.16983675697805206 0.054955809685017454
2510000000 0.19904521954362747 0.07274795976829247
2520000000 0.23228172609859746 0.08539886979367114
2530000000 0.26271483026942566 0.09948187102666355
2540000000 0.29541986176653723 0.10309201225655094
2550000000 0.32593020027867725 0.10952491547976966
2560000000 0.36477717468909693 0.11140829240343152
2570000000 0.3992829663346136 0.10943678857864121
2580000000 0.4302636291334604 0.10011308022062719
2590000000 0.4606667928984255 0.09344105513083784
2600000000 0.49454352117693434 0.08402201489345457
2610000000 0.5190184977838632 0.07337336284911608
2620000000 0.549248145971644 0.06056647302365955
2630000000 0.572166656208798 0.04272562744234343
2640000000 0.5961163328753587 0.026467793545408624
2650000000 0.6179081460588022 0.007449766001301903
2660000000 0.6355874496219727 -0.018230700383374772
2670000000 0.6539536838062281 -0.03239711787247701
2680000000 0.6707444135478918 -0.059967960204574476
2690000000 0.6860521229341361 -0.07439748344027194
2700000000 0.6969943743089598 -0.10977257185626893
2710000000 0.7045036425950835 -0.12445986395951815
2720000000 0.7117167758030352 -0.14706426390378
2730000000 0.7154138762071194 -0.16580490288392735
2740000000 0.7172070898693531 -0.19624055334486998
2750000000 0.7258332381966734 -0.20990355032907532
2760000000 0.7268160816048408 -0.22806712113606809
2770000000 0.7288122891189419 -0.24095853668139006
2780000000 0.7346440341189715 -0.27254244299749275
2790000000 0.7357159815783159 -0.2860468681129802
2800000000 0.7252741326355729 -0.3141096071673362
2810000000 0.7324273267230197 -0.32985250948862205
2820000000 0.7301343333658936 -0.355284159939252
2830000000 0.7395244783202497 -0.3775635247215466
2840000000 0.7268601089601204 -0.38279322221084616
2850000000 0.7217710846851046 -0.40489270195097904
2860000000 0.7224461328744393 -0.4159509172784286
2870000000 0.7154737810532927 -0.43190889222621975
2880000000 0.7098353676588085 -0.4455749515924034
2890000000 0.704579310210392 -0.46241322332488494
2900000000 0.7017439936916605 -0.4706415587220851
2910000000 0.6953014972784851 -0.4803649425518785
2920000000 0.6931317214172519 -0.49634632205260626
2930000000 0.6831929172918236 -0.5072231138226155
2940000000 0.680434273898674 -0.5234527083883275
2950000000 0.6681150636738676 -0.5270427208187817
2960000000 0.6644820909421869 -0.5457302618010433
2970000000 0.6596862397386739 -0.5501279542002093
2980000000 0.6526305593026287 -0.5616884959949808
2990000000 0.6424643944167886 -0.5730876687058704
3000000000 0.630329227717969 -0.581001415102432
